#  HZ   S   DB   R     50.00 
! Rohde & Schwarz Vector Network Analyzer 
! Rohde-Schwarz,ZNB8-2Port,1311601042102944,2.30
! Created: UTC 11/6/2020, 12:57:25 PM
!The following Port Impedance Renormalization has been used when saving the data.
!PortZ  Port1:50+j0    Port2:50+j0
! freq[Hz]                db:S11                  ang:S11                 db:S21                  ang:S21                 db:S12                  ang:S12                 db:S22                  ang:S22
 5.000000000000000E8    -1.119067026257675E1     1.093935082339000E2     9.730715267360887       1.463403684156577E2    -4.370048725940738E1    -6.132145442166774E1     3.757363190328806      -1.363545115723643E2
 5.068750000000000E8    -1.106504911664902E1     1.083642667007830E2     7.720825395856702       1.528027140559849E2    -5.129767676490189E1    -2.645786072963730E1     2.874678633907057E-1    1.606617863170690E2
 5.137500000000000E8    -1.078752703335792E1     1.065363108423066E2     5.787874900439213       1.772483032042887E2    -4.883058391165469E1     4.651293968722061E1    -3.839941759381630       1.151058965089181E2
 5.206250000000000E8    -1.042140040866298E1     1.026078153153204E2     9.669313864770214      -1.476685668725034E2    -4.472252307333974E1     5.454779706159780E1    -4.432592941312726       1.031763640213796E2
 5.275000000000000E8    -1.035235542773906E1     9.539471725113491E1     1.568685344716194E1    -1.515360983208622E2    -4.017954301714635E1     5.170365527644370E1    -9.432251227568070       8.906083336915945E1
 5.343750000000000E8    -1.118487269990063E1     8.831252583034274E1     1.892684189074705E1    -1.734767881294527E2    -3.920386399287901E1     3.330337798495187E1    -1.014131220820251E1     1.251351372838598E2
 5.412500000000000E8    -1.240025374643401E1     8.747129713730044E1     1.972379941423338E1     1.654563731715758E2    -3.969249220864784E1     2.938306926602893E1    -1.003297383357070E1     1.124634056714218E2
 5.481250000000000E8    -1.311760337597856E1     9.069494873670359E1     1.959141623520182E1     1.506383816320741E2    -4.103031566020961E1     3.336304447946419E1    -9.507675184714772       1.337582146216360E2
 5.550000000000000E8    -1.333842729166415E1     9.417954763944417E1     1.930702713630323E1     1.402713094574135E2    -4.179956127522733E1     4.955629200341607E1    -2.512430273223052E1     1.378408809578170E2
 5.618750000000000E8    -1.330832572149878E1     9.694384498564371E1     1.904369608601941E1     1.325780263402536E2    -4.412789280816828E1     6.145155921323821E1    -1.100791669002356E1    -6.536674595379674E1
 5.687500000000000E8    -1.314912828188506E1     9.907056434823242E1     1.880414108717157E1     1.261875436786652E2    -5.388852845506599E1     6.646193810125361E1    -5.044761373461996      -3.686111338191766E1
 5.756250000000000E8    -1.293383298582552E1     1.007255704564244E2     1.858319520486039E1     1.207969861897647E2    -4.964691790950079E1    -1.478178219851315E1    -6.816630270300322E-1   -1.491264725333495E1
 5.825000000000000E8    -1.267019901616331E1     1.019173062985128E2     1.841947374457211E1     1.155025018384754E2    -4.532089641733759E1    -9.444574738300693      -5.149574216024166E-1   -9.627996350552915E-1
 5.893750000000000E8    -1.235443201772151E1     1.027785932295390E2     1.830060589454632E1     1.109766252831521E2    -4.311443156996150E1    -1.633225181266705E1     1.396707848299341       4.515170756631615
 5.962500000000000E8    -1.201684857158673E1     1.033778472349118E2     1.822980230761326E1     1.069957430981047E2    -4.028298484928907E1    -8.355767647924093       3.951721851044158       1.117102416650705E1
 6.031250000000000E8    -1.166371074594714E1     1.036154890502565E2     1.807764157384414E1     1.032691535431112E2    -4.018100460174430E1    -4.723738102881861E-2    5.737294318848689       2.432653324672320E1
 6.100000000000000E8    -1.129542639694706E1     1.036339294962633E2     1.788907006375532E1     9.948406761096072E1    -3.940588725303895E1     8.188345070486475       6.761308081302594       4.171975838369322E1
 6.168750000000000E8    -1.092191567513257E1     1.033410443850944E2     1.764111443661041E1     9.465375266175104E1    -4.028427645816065E1     1.657152702640794E1     5.836852745715513       6.719117965542890E1
 6.237500000000000E8    -1.053928693341605E1     1.029005312422121E2     1.746639868543716E1     8.897623207076487E1    -4.061511906473325E1     3.164152131096867E1     2.830094004307168       1.001385474502252E2
 6.306250000000000E8    -1.013568493384852E1     1.021939804120470E2     1.747568140787826E1     8.455821712220515E1    -4.064531709961639E1     3.567899258193840E1    -5.541477879180451E-2    1.091925113292659E2
 6.375000000000000E8    -9.739819702377686       1.012293880111342E2     1.752005834581841E1     7.990778474273269E1    -4.180890241109686E1     4.201148704560691E1    -7.010178955033055       1.309734262477253E2
 6.443750000000000E8    -9.344279568020312       1.000066897838277E2     1.754633580755712E1     7.581393044177639E1    -4.430787369712930E1     4.132180962510832E1    -1.744999914830486E1     1.687865786535779E2
 6.512500000000000E8    -8.967290560438981       9.862063970210852E1     1.756250079723486E1     7.180837102300197E1    -5.206686600833513E1     4.030461957448211E1    -1.193314742489782E1    -6.007033266507781E1
 6.581250000000000E8    -8.578075030662273       9.701082726841113E1     1.757387950982868E1     6.820758472386974E1    -4.850533661252719E1    -3.605634635791864E1    -7.250090094479504      -4.019834460754304E1
 6.650000000000000E8    -8.196753764901562       9.526769838055908E1     1.759796123811598E1     6.464823487872748E1    -4.358396723439249E1    -3.752047664076125E1    -4.234426617817860      -1.746874572897185E1
 6.718750000000000E8    -7.831693699415761       9.344108447603088E1     1.754277628823477E1     6.100255107884260E1    -4.101780476540319E1    -3.302447065974444E1    -3.981365084077217      -1.558211467678162E1
 6.787500000000000E8    -7.483222639517752       9.156287490709504E1     1.753201373672869E1     5.723817311278648E1    -4.007061130706499E1    -3.425552211480202E1    -2.482192220251455      -1.330889672958788E1
 6.856250000000000E8    -7.142739545410253       8.959821828096359E1     1.749107829586145E1     5.353447909712255E1    -3.979171374750250E1    -3.228833717282959E1    -9.863529477547018E-1   -1.509007949223384E1
 6.925000000000000E8    -6.816944680457352       8.757740709599779E1     1.746014259973994E1     4.983939243645273E1    -3.903426002319844E1    -3.312585038913510E1     8.188322654138530E-1   -8.905659397386454
 6.993750000000000E8    -6.505422091253427       8.551406129193333E1     1.744862921347358E1     4.626021769915291E1    -3.961527135053718E1    -4.406999969771884E1     2.381568211343068      -4.994456242301844
 7.062500000000000E8    -6.200220814784969       8.341208585404232E1     1.740328479915037E1     4.273476351324641E1    -3.806622049370487E1    -5.255723212183271E1     3.857392638695834       1.445370011225096E1
 7.131250000000000E8    -5.899930978646435       8.125103797183046E1     1.732494367921085E1     3.925088120512691E1    -3.665605858818289E1    -4.981766618441126E1     2.938665052069065       2.751612530814208E1
 7.200000000000000E8    -5.611401178245150       7.907199304798346E1     1.726470550036076E1     3.538955277403449E1    -3.759572970410717E1    -4.825595885446172E1     5.939090179243945E-1    2.562257455100365E1
 7.268750000000000E8    -5.326837282286104       7.685942994545505E1     1.719068925334608E1     3.160911060739541E1    -3.769423469467397E1    -3.971378907664602E1    -1.371838296323461       3.482593569626535E1
 7.337500000000000E8    -5.051002134639000       7.459710484873547E1     1.710614555030335E1     2.788361390065567E1    -3.899142565013366E1    -3.393286738640622E1    -3.919228355550104       3.136038491147724E1
 7.406250000000000E8    -4.788096791218663       7.227729215645402E1     1.704889044298287E1     2.410714273675095E1    -4.094362128021827E1    -3.374761288918512E1    -3.983518700668651       1.682514523656073E1
 7.475000000000000E8    -4.534975694262658       6.993715235438489E1     1.697620524750155E1     2.041183386301101E1    -4.318243272729109E1    -3.593499010453954E1    -3.574825908696039       6.072843927141530
 7.543750000000000E8    -4.288590314659448       6.752230027305625E1     1.688342755218940E1     1.674337085976340E1    -4.428042073839062E1    -4.611449703215742E1    -3.411749178697059       4.069026416649538E-1
 7.612500000000000E8    -4.046831305040755       6.500055873980347E1     1.681129912507975E1     1.313293598610720E1    -4.470088819258314E1    -5.007949002501651E1    -1.947645604772504      -9.194128924914506E-1
 7.681250000000000E8    -3.821057771759777       6.236303337725622E1     1.669776147049686E1     9.405761613715466      -4.510421603984942E1    -6.778093333308804E1    -1.037195701369280      -2.771730918737874
 7.750000000000000E8    -3.618776317207633       5.955184591733163E1     1.654911928951899E1     6.159213350809766      -4.317576590626312E1    -8.644608983408421E1     1.753287781114873E-1   -9.214744147288460E-1
 7.818750000000000E8    -3.465577815823229       5.653510713400706E1     1.636208669805182E1     3.106916856590619      -4.081851248643627E1    -1.001388918818540E2     1.195486179887196      -1.243787902919384
 7.887500000000000E8    -3.394674853573396       5.353255369351519E1     1.618726405170560E1     1.040931409887086      -4.029565963608700E1    -9.342715999144667E1     1.336454649453273       2.248494479350383E-1
 7.956250000000000E8    -3.398709415111366       5.114922779220439E1     1.632417901587271E1    -1.472730926702497      -3.602507316245979E1    -9.273636160840847E1     5.207025309021129      -1.126916119023751
 8.025000000000000E8    -3.350868647990748       4.927429149233096E1     1.652758497911594E1    -3.744131928354954      -3.467697217486647E1    -7.948472384276558E1     7.136086158519889       1.352981797525791E1
 8.093750000000000E8    -3.250020712849333       4.740665622129808E1     1.681715508287805E1    -5.081700172366104      -3.245128398161044E1    -6.263392874862057E1     1.027487882114336E1     4.545394489906708E1
 8.162500000000000E8    -3.097553425622460       4.556425654255296E1     1.635055146651582E1    -8.017619561621189      -3.667792228158686E1    -6.010112274053135E1     3.806869743183344       6.979128858043451E1
 8.231250000000000E8    -2.956896772978395       4.357193386672823E1     1.616072393910762E1    -1.169691739269189E1    -3.894920494889158E1    -6.339782120075613E1    -1.280018033969737       8.213676910499112E1
 8.300000000000000E8    -2.830234318565673       4.146393346817604E1     1.603758514771571E1    -1.544811209961905E1    -3.881496062923133E1    -5.800315815161986E1    -7.488148375925360       8.230752653704353E1
 8.368750000000000E8    -2.709727569752043       3.934847182381574E1     1.595646024661771E1    -1.913487753246350E1    -3.942019968981161E1    -5.751718317276711E1    -1.381561957886468E1     5.098761184369477E1
 8.437500000000000E8    -2.595657811186876       3.722101170773502E1     1.586437967590633E1    -2.251096743509870E1    -3.970433827643567E1    -5.189066561750518E1    -1.648752840008832E1     2.801018971900707E-1
 8.506250000000000E8    -2.487860545683316       3.509748794098537E1     1.577650396525084E1    -2.598464039796299E1    -4.103369684397435E1    -4.627071272081852E1    -9.810845556665857      -4.384531029401142E1
 8.575000000000000E8    -2.387254781073211       3.300547855070177E1     1.571079534136538E1    -2.936316737482458E1    -4.298904479076658E1    -3.989663691910291E1    -5.421104955955283      -4.325449122153396E1
 8.643750000000000E8    -2.294423660075731       3.092955479719660E1     1.562848492161482E1    -3.261786684639257E1    -4.436581853281599E1    -4.168741920560164E1    -2.798338693700788      -4.701711753683431E1
 8.712500000000000E8    -2.206226048376520       2.886604593373597E1     1.557152568082895E1    -3.584188944456249E1    -4.637504999580776E1    -4.811343538628008E1    -1.769872052487614E-2   -4.262809375544392E1
 8.781250000000000E8    -2.124569066545388       2.680130495541979E1     1.550007052983180E1    -3.891458267361543E1    -4.770691810373337E1    -7.862760506295801E1     1.410487447675267      -3.609694921806769E1
 8.850000000000000E8    -2.051718553899078       2.474853706077052E1     1.543330911569401E1    -4.190232130782628E1    -4.815389638819355E1    -9.654713463256506E1     2.718603654766019      -2.636259942461937E1
 8.918750000000000E8    -1.986010889073800       2.271004444502739E1     1.536491858321734E1    -4.472996404225648E1    -4.517485148241650E1    -1.144448976619513E2     3.378186154190516      -1.307701661523512E1
 8.987500000000000E8    -1.923930117370305       2.067795717873733E1     1.525676879729101E1    -4.771050613014532E1    -4.515236219776536E1    -1.108544825031739E2     2.261176246392969      -3.413710878849338
 9.056250000000000E8    -1.872373031878604       1.865960214961353E1     1.520541747427594E1    -5.068276123259121E1    -4.324082801378250E1    -1.169474319864194E2     2.564320623215437      -3.033945178827194
 9.125000000000000E8    -1.822972868283133       1.663214752883912E1     1.511732002132917E1    -5.361633809069454E1    -4.184049475963405E1    -1.083565005960325E2     2.174970107476369       6.873533796069976
 9.193750000000000E8    -1.783008862678467       1.464201773878787E1     1.508100903129237E1    -5.671058364906498E1    -4.113600671546303E1    -1.184366533438346E2     2.638708209972706       7.638403912348997
 9.262500000000000E8    -1.750340749270179       1.266376488208632E1     1.505658907933753E1    -5.959636603714144E1    -4.007726949631785E1    -1.211728603217369E2     3.039069129873153       1.445588498019135E1
 9.331250000000000E8    -1.726573422354176       1.066051640138331E1     1.493101139909507E1    -6.251596866803718E1    -3.891833876839080E1    -1.082841687538825E2     1.874507026064499       2.812558078971194E1
 9.400000000000000E8    -1.708915335279380       8.707372927189942       1.482559553589371E1    -6.557894229264016E1    -3.807634741113370E1    -1.020408656705859E2     1.969177977374426E-1    4.150408489354835E1
 9.468750000000000E8    -1.694546979399453       6.747083886387801       1.477098661821089E1    -6.927058955623548E1    -3.822858421529166E1    -9.562129394060339E1    -1.037619191877589       4.402573528484560E1
 9.537500000000000E8    -1.685336423886879       4.803974198955531       1.469237179665132E1    -7.313110591137858E1    -3.940964014139378E1    -9.165232181628207E1    -2.835225517665745       4.829415022757395E1
 9.606250000000000E8    -1.689982812513520       2.848020458853128       1.460222089840062E1    -7.703081908382974E1    -4.159890037263040E1    -7.169614785799664E1    -5.224737527476440       6.444636483724456E1
 9.675000000000000E8    -1.699792779215931       9.710933538935318E-1    1.453397795382417E1    -8.190475081848253E1    -4.762257807683121E1    -8.129421461257533E1    -8.332680649078716       5.763724885238725E1
 9.743750000000000E8    -1.726931542937926      -8.455252087598126E-1    1.435224229277658E1    -8.723760400817652E1    -4.959021071038847E1    -1.501893243107291E2    -1.734810901705090E1    -2.168800227571538E1
 9.812500000000000E8    -1.787248812748319      -2.584969208128015       1.421640810324093E1    -9.303846845404705E1    -4.567804719055058E1    -1.550578198115383E2    -1.573578031690869E1    -5.949050581129193E1
 9.881250000000000E8    -1.881464137909312      -4.136281120214073       1.403149334277307E1    -1.000732691668437E2    -4.390714955798999E1    -1.522140351972518E2    -1.376625855563545E1    -7.357689495389096E1
 9.950000000000000E8    -2.012291615659323      -5.336548877585484       1.358114076240746E1    -1.089411051844608E2    -4.399102445786777E1    -1.585540401078059E2    -1.134591447980200E1    -6.518253033344952E1
 1.001875000000000E9    -2.151749899034321      -5.838451006772561       1.259846418735178E1    -1.192199345707109E2    -4.513314857629724E1    -1.689730118109589E2    -7.802137211409584      -6.585996735312790E1
 1.008750000000000E9    -2.193175549920175      -5.434993956274708       1.061937186301726E1    -1.292473251414129E2    -5.000054396412511E1    -1.741766167877410E2    -4.115268044721213      -5.535359663110815E1
 1.015625000000000E9    -2.023637309314822      -4.957906917631488       7.255423841270332      -1.318062762866348E2    -5.937058840154048E1     1.745941343648890E2    -1.727843248543509      -4.922723317586523E1
 1.022500000000000E9    -1.724541067384415      -5.564640858189889       4.017886702993780      -1.139928096874162E2    -6.893038896178828E1    -7.907173242265094E1    -2.730891156553390E-1   -4.736129427645648E1
 1.029375000000000E9    -1.460498097883894      -7.209154251637727       4.582816653617032      -8.931779112641554E1    -6.033083213843138E1    -6.704066782790353E1     1.669330940000380      -4.590315263705035E1
 1.036250000000000E9    -1.280751112224381      -9.287982747212269       6.586983605624473      -8.080084498692820E1    -5.640790518044705E1    -9.147443751614253E1     3.225779067500090      -4.836714393186997E1
 1.043125000000000E9    -1.168844504102504      -1.142170590897030E1     8.093978452351855      -7.997261542999110E1    -5.603847786646108E1    -1.107708472638030E2     4.934439340062427      -4.314674364305192E1
 1.050000000000000E9    -1.098060938905769      -1.346043919792202E1     9.001607698423976      -8.092107628557544E1    -5.713751479725120E1    -1.145660921572024E2     5.081422691063253      -2.609489567981401E1
 1.056875000000000E9    -1.047798717578589      -1.539350872211711E1     9.562518976204789      -8.323348503823824E1    -5.514561107081813E1    -1.257250716700782E2     4.236481371242881      -1.529150187292771E1
 1.063750000000000E9    -1.011420739116447      -1.729295047107787E1     9.932144703847719      -8.601101329786467E1    -5.509602044866181E1    -1.259310613304520E2     3.036258571444175      -8.956177402748923
 1.070625000000000E9    -9.873906830652669E-1   -1.912227896046439E1     1.016004012352997E1    -8.923395580165933E1    -5.643690374703816E1    -1.309822220859799E2     1.605583625844500      -9.390618234452987
 1.077500000000000E9    -9.731875590164993E-1   -2.088605030999813E1     1.032018217268715E1    -9.263889404038926E1    -5.772552333754882E1    -1.432459746284967E2     7.378594742673666E-1   -1.511231853192203E1
 1.084375000000000E9    -9.613459757028499E-1   -2.256896822784124E1     1.049417060120812E1    -9.593345502790109E1    -5.772949327983795E1    -1.648826775941897E2     9.209119558821833E-1   -1.914432005706140E1
 1.091250000000000E9    -9.527111413372374E-1   -2.422120313475669E1     1.059014642727300E1    -9.922252505152486E1    -5.628204396786849E1     1.587289143426283E2     1.078823122144432      -2.290369024722390E1
 1.098125000000000E9    -9.457835246789956E-1   -2.581754862480332E1     1.068057273714831E1    -1.022822577475970E2    -5.073669739714762E1     1.456958248437775E2     1.407151819590298      -2.320195990503147E1
 1.105000000000000E9    -9.373923144359951E-1   -2.736948292550320E1     1.074110521874780E1    -1.050494723213285E2    -4.587868776862078E1     1.490922272291617E2     1.388240758123211      -2.129819873868078E1
 1.111875000000000E9    -9.285064894138272E-1   -2.890361807423702E1     1.082095282483025E1    -1.077163699956700E2    -4.238046953523750E1     1.539084670699377E2     1.261458774252466      -1.634995814899758E1
 1.118750000000000E9    -9.250292497768060E-1   -3.041170009945330E1     1.075063001439374E1    -1.103880197332524E2    -4.114580878384559E1     1.616605317719930E2     9.491111609051388E-1   -2.042627389802633E1
